***BUSMASTER Ver 3.2.2***
***PROTOCOL CAN***
***NOTE: PLEASE DO NOT EDIT THIS DOCUMENT***
***[START LOGGING SESSION]***
***START DATE AND TIME 5:10:2026 16:34:30:698***
***HEX***
***SYSTEM MODE***
***START CHANNEL BAUD RATE***
***CHANNEL 1 - PCAN-USB Driver Id 16 - 1000000 bps***
***END CHANNEL BAUD RATE***
***START DATABASE FILES***
***END DATABASE FILES***
***<Time><Tx/Rx><Channel><CAN ID><Type><DLC><DataBytes>***
16:34:36:1290 Rx 18 0x100A001 xr 0 
16:34:36:2342 Rx 1 0x3FFC2FE x 2 47 E0 
16:34:36:2489 Rx 1 0x000 s 8 00 10 13 00 0A 00 00 00 
16:34:36:2520 Rx 1 0x000 s 8 00 10 13 00 0A 00 00 00 
16:34:36:2549 Rx 1 0x000 s 8 00 10 13 00 0A 00 00 00 
16:34:36:2589 Rx 1 0x000 s 8 00 10 13 00 0A 00 00 00 
16:34:36:2618 Rx 1 0x000 s 8 00 10 13 00 0A 00 00 00 
16:34:36:2650 Rx 1 0x000 s 8 00 10 13 00 0A 00 00 00 
16:34:36:2689 Rx 1 0x000 s 8 00 10 13 00 0A 00 00 00 
16:34:36:2719 Rx 1 0x000 s 8 00 10 13 00 0A 00 00 00 
16:34:36:2748 Rx 1 0x000 s 8 00 10 13 00 0A 00 00 00 
16:34:36:2788 Rx 1 0x000 s 8 00 10 13 00 0A 00 00 00 
16:34:36:2818 Rx 1 0x000 s 8 00 10 13 00 0A 00 00 00 
16:34:36:2847 Rx 1 0x000 s 8 00 10 13 00 0A 00 00 00 
16:34:36:2887 Rx 1 0x000 s 8 00 10 13 00 0A 00 00 00 
16:34:36:2917 Rx 1 0x000 s 8 00 10 13 00 0A 00 00 00 
16:34:36:2947 Rx 1 0x000 s 8 00 10 13 00 0A 00 00 00 
16:34:36:2987 Rx 1 0x000 s 8 00 10 13 00 0A 00 00 00 
16:34:36:3017 Rx 1 0x000 s 8 00 10 13 00 0A 00 00 00 
16:34:36:3047 Rx 1 0x000 s 8 00 10 13 00 0A 00 00 00 
16:34:36:3088 Rx 1 0x000 s 8 00 10 13 00 0A 00 00 00 
16:34:36:5657 Rx 1 0x000 s 8 00 10 13 00 0A 00 00 00 
16:34:36:5686 Rx 1 0x000 s 8 00 10 13 00 0A 00 00 00 
16:34:36:5717 Rx 1 0x000 s 8 00 10 13 00 0A 00 00 00 
16:34:36:5756 Rx 1 0x000 s 8 00 10 13 00 0A 00 00 00 
16:34:36:5786 Rx 1 0x000 s 8 00 10 13 00 0A 00 00 00 
16:34:36:5815 Rx 1 0x000 s 8 00 10 13 00 0A 00 00 00 
16:34:36:5855 Rx 1 0x000 s 8 00 10 13 00 0A 00 00 00 
16:34:36:5887 Rx 1 0x000 s 8 00 10 13 00 0A 00 00 00 
16:34:36:5916 Rx 1 0x000 s 8 00 10 13 00 0A 00 00 00 
16:34:36:5957 Rx 1 0x000 s 8 00 10 13 00 0A 00 00 00 
16:34:36:5986 Rx 1 0x000 s 8 00 10 13 00 0A 00 00 00 
16:34:36:6016 Rx 1 0x000 s 8 00 10 13 00 0A 00 00 00 
16:34:36:6018 Rx 1 0xE152D x 8 00 10 E2 07 35 39 00 00 
16:34:36:6055 Rx 1 0x000 s 8 00 10 13 00 0A 00 00 00 
16:34:36:6057 Rx 1 0xE152D x 8 00 10 E2 07 35 39 00 00 
16:34:36:6084 Rx 1 0x000 s 8 00 10 13 00 0A 00 00 00 
16:34:36:6086 Rx 1 0xE152D x 8 00 10 E2 07 35 39 00 00 
16:34:36:6115 Rx 1 0x000 s 8 00 10 13 00 0A 00 00 00 
16:34:36:6117 Rx 1 0xE152D x 8 00 10 E2 07 35 39 00 00 
16:34:36:6155 Rx 1 0x000 s 8 00 10 13 00 0A 00 00 00 
16:34:36:6157 Rx 1 0xE152D x 8 00 10 E2 07 35 39 00 00 
16:34:36:6184 Rx 1 0x000 s 8 00 10 13 00 0A 00 00 00 
16:34:36:6186 Rx 1 0xE152D x 8 00 10 E2 07 35 39 00 00 
16:34:36:6215 Rx 1 0x000 s 8 00 10 13 00 0A 00 00 00 
16:34:36:6217 Rx 1 0xE152D x 8 00 10 E2 07 35 39 00 00 
16:34:36:6254 Rx 1 0x000 s 8 00 10 13 00 0A 00 00 00 
16:34:36:6257 Rx 1 0xE152D x 8 00 10 E2 07 35 39 00 00 
16:34:36:7552 Rx 1 0x11F810FF x 8 00 00 58 02 A2 00 FA 00 
16:34:36:7553 Rx 1 0x11F810FF x 8 01 0A 06 B9 00 4A 05 C7 
16:34:36:7556 Rx 1 0x11F810FF x 8 02 00 4C 05 C6 03 0C 01 
16:34:36:7558 Rx 1 0x11F810FF x 8 03 28 02 70 FF 9A 00 26 
16:34:36:7559 Rx 1 0x11F810FF x 8 04 00 00 00 28 00 00 02 
16:34:36:7562 Rx 1 0x11F810FF x 8 05 E2 00 00 02 E4 00 00 
16:34:36:7563 Rx 1 0x11F810FF x 8 06 02 E6 00 00 02 FE 00 
16:34:36:7565 Rx 1 0x11F810FF x 8 07 00 00 2C 02 4E 00 2E 
16:34:36:7567 Rx 1 0x11F810FF x 8 08 02 4E 00 30 02 4E 00 
16:34:36:7569 Rx 1 0x11F810FF x 8 09 32 02 4E 00 34 02 4E 
16:34:36:7571 Rx 1 0x11F810FF x 8 0A 00 36 02 4E 00 1E 00 
16:34:36:7573 Rx 1 0x11F810FF x 8 0B 00 03 2E 00 00 03 30 
16:34:36:7575 Rx 1 0x11F810FF x 7 0C 00 00 03 32 00 00 
16:34:36:7762 Rx 1 0x11F810FF x 8 00 00 58 02 A2 00 F2 00 
16:34:36:7763 Rx 1 0x11F810FF x 8 01 0A 06 7D 00 4A 05 A6 
16:34:36:7765 Rx 1 0x11F810FF x 8 02 00 4C 05 A7 03 0C 01 
16:34:36:7767 Rx 1 0x11F810FF x 8 03 21 02 70 FF 97 00 26 
16:34:36:7769 Rx 1 0x11F810FF x 8 04 00 00 00 28 00 00 02 
16:34:36:7771 Rx 1 0x11F810FF x 8 05 E2 00 00 02 E4 00 00 
16:34:36:7773 Rx 1 0x11F810FF x 8 06 02 E6 00 00 02 FE 00 
16:34:36:7775 Rx 1 0x11F810FF x 8 07 00 00 2C 02 4E 00 2E 
16:34:36:7777 Rx 1 0x11F810FF x 8 08 02 4E 00 30 02 4E 00 
16:34:36:7779 Rx 1 0x11F810FF x 8 09 32 02 4E 00 34 02 4E 
16:34:36:7781 Rx 1 0x11F810FF x 8 0A 00 36 02 4E 00 1E 00 
16:34:36:7783 Rx 1 0x11F810FF x 8 0B 00 03 2E 00 00 03 30 
16:34:36:7785 Rx 1 0x11F810FF x 7 0C 00 00 03 32 00 00 
16:34:36:7971 Rx 1 0x11F810FF x 8 00 00 58 02 A2 00 EE 00 
16:34:36:7973 Rx 1 0x11F810FF x 8 01 0A 06 64 00 4A 05 99 
16:34:36:7975 Rx 1 0x11F810FF x 8 02 00 4C 05 9A 03 0C 01 
16:34:36:7977 Rx 1 0x11F810FF x 8 03 1F 02 70 FF 96 00 26 
16:34:36:7979 Rx 1 0x11F810FF x 8 04 00 00 00 28 00 00 02 
16:34:36:7981 Rx 1 0x11F810FF x 8 05 E2 00 00 02 E4 00 00 
16:34:36:7983 Rx 1 0x11F810FF x 8 06 02 E6 00 00 02 FE 00 
16:34:36:7985 Rx 1 0x11F810FF x 8 07 00 00 2C 02 4E 00 2E 
16:34:36:7986 Rx 1 0x11F810FF x 8 08 02 4E 00 30 02 4E 00 
16:34:36:7989 Rx 1 0x11F810FF x 8 09 32 02 4E 00 34 02 4E 
16:34:36:7990 Rx 1 0x11F810FF x 8 0A 00 36 02 4E 00 1E 00 
16:34:36:7992 Rx 1 0x11F810FF x 8 0B 00 03 2E 00 00 03 30 
16:34:36:7994 Rx 1 0x11F810FF x 7 0C 00 00 03 32 00 00 
16:34:36:8181 Rx 1 0x11F810FF x 8 00 00 58 02 A2 00 EC 00 
16:34:36:8182 Rx 1 0x11F810FF x 8 01 0A 06 5A 00 4A 05 93 
16:34:36:8184 Rx 1 0x11F810FF x 8 02 00 4C 05 92 03 0C 01 
16:34:36:8186 Rx 1 0x11F810FF x 8 03 1E 02 70 FF 95 00 26 
16:34:36:8188 Rx 1 0x11F810FF x 8 04 00 00 00 28 00 00 02 
16:34:36:8190 Rx 1 0x11F810FF x 8 05 E2 00 00 02 E4 00 00 
16:34:36:8192 Rx 1 0x11F810FF x 8 06 02 E6 00 00 02 FE 00 
16:34:36:8194 Rx 1 0x11F810FF x 8 07 00 00 2C 02 4E 00 2E 
16:34:36:8196 Rx 1 0x11F810FF x 8 08 02 4E 00 30 02 4E 00 
16:34:36:8198 Rx 1 0x11F810FF x 8 09 32 02 4E 00 34 02 4E 
16:34:36:8200 Rx 1 0x11F810FF x 8 0A 00 36 02 4E 00 1E 00 
16:34:36:8202 Rx 1 0x11F810FF x 8 0B 00 03 2E 00 00 03 30 
16:34:36:8204 Rx 1 0x11F810FF x 7 0C 00 00 03 32 00 00 
16:34:36:8323 Rx 1 0x11F812FF x 8 00 00 08 02 EE 09 CE 00 
16:34:36:8325 Rx 1 0x11F812FF x 4 01 4E 09 CE 
16:34:36:8390 Rx 1 0x11F810FF x 8 00 00 58 02 A2 00 EB 00 
16:34:36:8392 Rx 1 0x11F810FF x 8 01 0A 06 51 00 4A 05 8F 
16:34:36:8394 Rx 1 0x11F810FF x 8 02 00 4C 05 8F 03 0C 01 
16:34:36:8396 Rx 1 0x11F810FF x 8 03 1C 02 70 FF 95 00 26 
16:34:36:8397 Rx 1 0x11F810FF x 8 04 00 00 00 28 00 00 02 
16:34:36:8399 Rx 1 0x11F810FF x 8 05 E2 00 00 02 E4 00 00 
16:34:36:8401 Rx 1 0x11F810FF x 8 06 02 E6 00 00 02 FE 00 
16:34:36:8403 Rx 1 0x11F810FF x 8 07 00 00 2C 02 4E 00 2E 
16:34:36:8405 Rx 1 0x11F810FF x 8 08 02 4E 00 30 02 4E 00 
16:34:36:8407 Rx 1 0x11F810FF x 8 09 32 02 4E 00 34 02 4E 
16:34:36:8409 Rx 1 0x11F810FF x 8 0A 00 36 02 4E 00 1E 00 
16:34:36:8411 Rx 1 0x11F810FF x 8 0B 00 03 2E 00 00 03 30 
16:34:36:8413 Rx 1 0x11F810FF x 7 0C 00 00 03 32 00 00 
16:34:36:8599 Rx 1 0x11F810FF x 8 00 00 58 02 A2 00 EC 00 
16:34:36:8601 Rx 1 0x11F810FF x 8 01 0A 06 58 00 4A 05 92 
16:34:36:8603 Rx 1 0x11F810FF x 8 02 00 4C 05 92 03 0C 01 
16:34:36:8605 Rx 1 0x11F810FF x 8 03 1D 02 70 FF 95 00 26 
16:34:36:8606 Rx 1 0x11F810FF x 8 04 00 00 00 28 00 00 02 
16:34:36:8609 Rx 1 0x11F810FF x 8 05 E2 00 00 02 E4 00 00 
16:34:36:8610 Rx 1 0x11F810FF x 8 06 02 E6 00 00 02 FE 00 
16:34:36:8612 Rx 1 0x11F810FF x 8 07 00 00 2C 02 4E 00 2E 
16:34:36:8614 Rx 1 0x11F810FF x 8 08 02 4E 00 30 02 4E 00 
16:34:36:8616 Rx 1 0x11F810FF x 8 09 32 02 4E 00 34 02 4E 
16:34:36:8618 Rx 1 0x11F810FF x 8 0A 00 36 02 4E 00 1E 00 
16:34:36:8620 Rx 1 0x11F810FF x 8 0B 00 03 2E 00 00 03 30 
16:34:36:8622 Rx 1 0x11F810FF x 7 0C 00 00 03 32 00 00 
16:34:36:8808 Rx 1 0x11F810FF x 8 00 00 58 02 A2 00 ED 00 
16:34:36:8810 Rx 1 0x11F810FF x 8 01 0A 06 5F 00 4A 05 96 
16:34:36:8812 Rx 1 0x11F810FF x 8 02 00 4C 05 96 03 0C 01 
16:34:36:8814 Rx 1 0x11F810FF x 8 03 1E 02 70 FF 96 00 26 
16:34:36:8816 Rx 1 0x11F810FF x 8 04 00 00 00 28 00 00 02 
16:34:36:8818 Rx 1 0x11F810FF x 8 05 E2 00 00 02 E4 00 00 
16:34:36:8820 Rx 1 0x11F810FF x 8 06 02 E6 00 00 02 FE 00 
16:34:36:8822 Rx 1 0x11F810FF x 8 07 00 00 2C 02 4E 00 2E 
16:34:36:8824 Rx 1 0x11F810FF x 8 08 02 4E 00 30 02 4E 00 
16:34:36:8826 Rx 1 0x11F810FF x 8 09 32 02 4E 00 34 02 4E 
16:34:36:8827 Rx 1 0x11F810FF x 8 0A 00 36 02 4E 00 1E 00 
16:34:36:8830 Rx 1 0x11F810FF x 8 0B 00 03 2E 00 00 03 30 
16:34:36:8831 Rx 1 0x11F810FF x 7 0C 00 00 03 32 00 00 
16:34:36:9018 Rx 1 0x11F810FF x 8 00 00 58 02 A2 00 ED 00 
16:34:36:9020 Rx 1 0x11F810FF x 8 01 0A 06 64 00 4A 05 99 
16:34:36:9022 Rx 1 0x11F810FF x 8 02 00 4C 05 97 03 0C 01 
16:34:36:9024 Rx 1 0x11F810FF x 8 03 1E 02 70 FF 96 00 26 
16:34:36:9025 Rx 1 0x11F810FF x 8 04 00 00 00 28 00 00 02 
16:34:36:9028 Rx 1 0x11F810FF x 8 05 E2 00 00 02 E4 00 00 
16:34:36:9029 Rx 1 0x11F810FF x 8 06 02 E6 00 00 02 FE 00 
16:34:36:9031 Rx 1 0x11F810FF x 8 07 00 00 2C 02 4E 00 2E 
16:34:36:9034 Rx 1 0x11F810FF x 8 08 02 4E 00 30 02 4E 00 
16:34:36:9035 Rx 1 0x11F810FF x 8 09 32 02 4E 00 34 02 4E 
16:34:36:9037 Rx 1 0x11F810FF x 8 0A 00 36 02 4E 00 1E 00 
16:34:36:9039 Rx 1 0x11F810FF x 8 0B 00 03 2E 00 00 03 30 
16:34:36:9041 Rx 1 0x11F810FF x 7 0C 00 00 03 32 00 00 
16:34:36:9227 Rx 1 0x11F810FF x 8 00 00 58 02 A2 00 ED 00 
16:34:36:9229 Rx 1 0x11F810FF x 8 01 0A 06 63 00 4A 05 97 
16:34:36:9231 Rx 1 0x11F810FF x 8 02 00 4C 05 97 03 0C 01 
16:34:36:9233 Rx 1 0x11F810FF x 8 03 1E 02 70 FF 96 00 26 
16:34:36:9235 Rx 1 0x11F810FF x 8 04 00 00 00 28 00 00 02 
16:34:36:9237 Rx 1 0x11F810FF x 8 05 E2 00 00 02 E4 00 00 
16:34:36:9239 Rx 1 0x11F810FF x 8 06 02 E6 00 00 02 FE 00 
16:34:36:9240 Rx 1 0x11F810FF x 8 07 00 00 2C 02 4E 00 2E 
16:34:36:9243 Rx 1 0x11F810FF x 8 08 02 4E 00 30 02 4E 00 
16:34:36:9244 Rx 1 0x11F810FF x 8 09 32 02 4E 00 34 02 4E 
16:34:36:9246 Rx 1 0x11F810FF x 8 0A 00 36 02 4E 00 1E 00 
16:34:36:9248 Rx 1 0x11F810FF x 8 0B 00 03 2E 00 00 03 30 
16:34:36:9250 Rx 1 0x11F810FF x 7 0C 00 00 03 32 00 00 
16:34:36:9319 Rx 1 0x11F812FF x 8 00 00 08 02 EE 09 CE 00 
16:34:36:9321 Rx 1 0x11F812FF x 4 01 4E 09 CE 
16:34:36:9436 Rx 1 0x11F810FF x 8 00 00 58 02 A2 00 ED 00 
16:34:36:9438 Rx 1 0x11F810FF x 8 01 0A 06 5D 00 4A 05 95 
16:34:36:9440 Rx 1 0x11F810FF x 8 02 00 4C 05 93 03 0C 01 
16:34:36:9442 Rx 1 0x11F810FF x 8 03 1D 02 70 FF 95 00 26 
16:34:36:9444 Rx 1 0x11F810FF x 8 04 00 00 00 28 00 00 02 
16:34:36:9446 Rx 1 0x11F810FF x 8 05 E2 00 00 02 E4 00 00 
16:34:36:9448 Rx 1 0x11F810FF x 8 06 02 E6 00 00 02 FE 00 
16:34:36:9450 Rx 1 0x11F810FF x 8 07 00 00 2C 02 4E 00 2E 
16:34:36:9452 Rx 1 0x11F810FF x 8 08 02 4E 00 30 02 4E 00 
16:34:36:9454 Rx 1 0x11F810FF x 8 09 32 02 4E 00 34 02 4E 
16:34:36:9456 Rx 1 0x11F810FF x 8 0A 00 36 02 4E 00 1E 00 
16:34:36:9458 Rx 1 0x11F810FF x 8 0B 00 03 2E 00 00 03 30 
16:34:36:9460 Rx 1 0x11F810FF x 7 0C 00 00 03 32 00 00 
16:34:36:9646 Rx 1 0x11F810FF x 8 00 00 58 02 A2 00 ED 00 
16:34:36:9648 Rx 1 0x11F810FF x 8 01 0A 06 5F 00 4A 05 95 
16:34:36:9650 Rx 1 0x11F810FF x 8 02 00 4C 05 95 03 0C 01 
16:34:36:9652 Rx 1 0x11F810FF x 8 03 1E 02 70 FF 96 00 26 
16:34:36:9653 Rx 1 0x11F810FF x 8 04 00 00 00 28 00 00 02 
16:34:36:9656 Rx 1 0x11F810FF x 8 05 E2 00 00 02 E4 00 00 
16:34:36:9657 Rx 1 0x11F810FF x 8 06 02 E6 00 00 02 FE 00 
16:34:36:9659 Rx 1 0x11F810FF x 8 07 00 00 2C 02 4E 00 2E 
16:34:36:9662 Rx 1 0x11F810FF x 8 08 02 4E 00 30 02 4E 00 
16:34:36:9663 Rx 1 0x11F810FF x 8 09 32 02 4E 00 34 02 4E 
16:34:36:9665 Rx 1 0x11F810FF x 8 0A 00 36 02 4E 00 1E 00 
16:34:36:9667 Rx 1 0x11F810FF x 8 0B 00 03 2E 00 00 03 30 
16:34:36:9669 Rx 1 0x11F810FF x 7 0C 00 00 03 32 00 00 
16:34:36:9854 Rx 1 0x11F810FF x 8 00 00 58 02 A2 00 EC 00 
16:34:36:9856 Rx 1 0x11F810FF x 8 01 0A 06 5A 00 4A 05 93 
16:34:36:9858 Rx 1 0x11F810FF x 8 02 00 4C 05 92 03 0C 01 
16:34:36:9860 Rx 1 0x11F810FF x 8 03 1D 02 70 FF 95 00 26 
16:34:36:9862 Rx 1 0x11F810FF x 8 04 00 00 00 28 00 00 02 
16:34:36:9864 Rx 1 0x11F810FF x 8 05 E2 00 00 02 E4 00 00 
16:34:36:9865 Rx 1 0x11F810FF x 8 06 02 E6 00 00 02 FE 00 
16:34:36:9868 Rx 1 0x11F810FF x 8 07 00 00 2C 02 4E 00 2E 
16:34:36:9870 Rx 1 0x11F810FF x 8 08 02 4E 00 30 02 4E 00 
16:34:36:9871 Rx 1 0x11F810FF x 8 09 32 02 4E 00 34 02 4E 
16:34:36:9873 Rx 1 0x11F810FF x 8 0A 00 36 02 4E 00 1E 00 
16:34:36:9875 Rx 1 0x11F810FF x 8 0B 00 03 2E 00 00 03 30 
16:34:36:9877 Rx 1 0x11F810FF x 7 0C 00 00 03 32 00 00 
16:34:37:0063 Rx 1 0x11F810FF x 8 00 00 58 02 A2 00 EC 00 
16:34:37:0065 Rx 1 0x11F810FF x 8 01 0A 06 5A 00 4A 05 91 
16:34:37:0067 Rx 1 0x11F810FF x 8 02 00 4C 05 91 03 0C 01 
16:34:37:0069 Rx 1 0x11F810FF x 8 03 1D 02 70 FF 95 00 26 
16:34:37:0071 Rx 1 0x11F810FF x 8 04 00 00 00 28 00 00 02 
16:34:37:0073 Rx 1 0x11F810FF x 8 05 E2 00 00 02 E4 00 00 
16:34:37:0075 Rx 1 0x11F810FF x 8 06 02 E6 00 00 02 FE 00 
16:34:37:0077 Rx 1 0x11F810FF x 8 07 00 00 2C 02 4E 00 2E 
16:34:37:0079 Rx 1 0x11F810FF x 8 08 02 4E 00 30 02 4E 00 
16:34:37:0081 Rx 1 0x11F810FF x 8 09 32 02 4E 00 34 02 4E 
16:34:37:0083 Rx 1 0x11F810FF x 8 0A 00 36 02 4E 00 1E 00 
16:34:37:0084 Rx 1 0x11F810FF x 8 0B 00 03 2E 00 00 03 30 
16:34:37:0087 Rx 1 0x11F810FF x 7 0C 00 00 03 32 00 00 
16:34:37:0273 Rx 1 0x11F810FF x 8 00 00 58 02 A2 00 ED 00 
16:34:37:0275 Rx 1 0x11F810FF x 8 01 0A 06 5D 00 4A 05 95 
16:34:37:0276 Rx 1 0x11F810FF x 8 02 00 4C 05 93 03 0C 01 
16:34:37:0278 Rx 1 0x11F810FF x 8 03 1E 02 70 FF 95 00 26 
16:34:37:0280 Rx 1 0x11F810FF x 8 04 00 00 00 28 00 00 02 
16:34:37:0282 Rx 1 0x11F810FF x 8 05 E2 00 00 02 E4 00 00 
16:34:37:0284 Rx 1 0x11F810FF x 8 06 02 E6 00 00 02 FE 00 
16:34:37:0286 Rx 1 0x11F810FF x 8 07 00 00 2C 02 4E 00 2E 
16:34:37:0288 Rx 1 0x11F810FF x 8 08 02 4E 00 30 02 4E 00 
16:34:37:0290 Rx 1 0x11F810FF x 8 09 32 02 4E 00 34 02 4E 
16:34:37:0292 Rx 1 0x11F810FF x 8 0A 00 36 02 4E 00 1E 00 
16:34:37:0294 Rx 1 0x11F810FF x 8 0B 00 03 2E 00 00 03 30 
16:34:37:0296 Rx 1 0x11F810FF x 7 0C 00 00 03 32 00 00 
16:34:37:0314 Rx 1 0x11F812FF x 8 00 00 08 02 EE 09 CE 00 
16:34:37:0315 Rx 1 0x11F812FF x 4 01 4E 09 CE 
16:34:37:0482 Rx 1 0x11F810FF x 8 00 00 58 02 A2 00 ED 00 
16:34:37:0484 Rx 1 0x11F810FF x 8 01 0A 06 63 00 4A 05 96 
16:34:37:0486 Rx 1 0x11F810FF x 8 02 00 4C 05 96 03 0C 01 
16:34:37:0488 Rx 1 0x11F810FF x 8 03 1E 02 70 FF 96 00 26 
16:34:37:0490 Rx 1 0x11F810FF x 8 04 00 00 00 28 00 00 02 
16:34:37:0492 Rx 1 0x11F810FF x 8 05 E2 00 00 02 E4 00 00 
16:34:37:0494 Rx 1 0x11F810FF x 8 06 02 E6 00 00 02 FE 00 
16:34:37:0496 Rx 1 0x11F810FF x 8 07 00 00 2C 02 4E 00 2E 
16:34:37:0497 Rx 1 0x11F810FF x 8 08 02 4E 00 30 02 4E 00 
16:34:37:0500 Rx 1 0x11F810FF x 8 09 32 02 4E 00 34 02 4E 
16:34:37:0501 Rx 1 0x11F810FF x 8 0A 00 36 02 4E 00 1E 00 
16:34:37:0503 Rx 1 0x11F810FF x 8 0B 00 03 2E 00 00 03 30 
16:34:37:0505 Rx 1 0x11F810FF x 7 0C 00 00 03 32 00 00 
16:34:37:0692 Rx 1 0x11F810FF x 8 00 00 58 02 A2 00 EE 00 
16:34:37:0693 Rx 1 0x11F810FF x 8 01 0A 06 68 00 4A 05 9A 
16:34:37:0695 Rx 1 0x11F810FF x 8 02 00 4C 05 98 03 0C 01 
16:34:37:0697 Rx 1 0x11F810FF x 8 03 1F 02 70 FF 96 00 26 
16:34:37:0699 Rx 1 0x11F810FF x 8 04 00 00 00 28 00 00 02 
16:34:37:0701 Rx 1 0x11F810FF x 8 05 E2 00 00 02 E4 00 00 
16:34:37:0703 Rx 1 0x11F810FF x 8 06 02 E6 00 00 02 FE 00 
16:34:37:0705 Rx 1 0x11F810FF x 8 07 00 00 2C 02 4E 00 2E 
16:34:37:0707 Rx 1 0x11F810FF x 8 08 02 4E 00 30 02 4E 00 
16:34:37:0709 Rx 1 0x11F810FF x 8 09 32 02 4E 00 34 02 4E 
16:34:37:0711 Rx 1 0x11F810FF x 8 0A 00 36 02 4E 00 1E 00 
16:34:37:0713 Rx 1 0x11F810FF x 8 0B 00 03 2E 00 00 03 30 
16:34:37:0715 Rx 1 0x11F810FF x 7 0C 00 00 03 32 00 00 
16:34:37:0901 Rx 1 0x11F810FF x 8 00 00 58 02 A2 00 EE 00 
16:34:37:0903 Rx 1 0x11F810FF x 8 01 0A 06 6B 00 4A 05 9B 
16:34:37:0905 Rx 1 0x11F810FF x 8 02 00 4C 05 9B 03 0C 01 
16:34:37:0907 Rx 1 0x11F810FF x 8 03 1F 02 70 FF 96 00 26 
16:34:37:0909 Rx 1 0x11F810FF x 8 04 00 00 00 28 00 00 02 
16:34:37:0911 Rx 1 0x11F810FF x 8 05 E2 00 00 02 E4 00 00 
16:34:37:0913 Rx 1 0x11F810FF x 8 06 02 E6 00 00 02 FE 00 
16:34:37:0915 Rx 1 0x11F810FF x 8 07 00 00 2C 02 4E 00 2E 
16:34:37:0917 Rx 1 0x11F810FF x 8 08 02 4E 00 30 02 4E 00 
16:34:37:0918 Rx 1 0x11F810FF x 8 09 32 02 4E 00 34 02 4E 
16:34:37:0920 Rx 1 0x11F810FF x 8 0A 00 36 02 4E 00 1E 00 
16:34:37:0922 Rx 1 0x11F810FF x 8 0B 00 03 2E 00 00 03 30 
16:34:37:0924 Rx 1 0x11F810FF x 7 0C 00 00 03 32 00 00 
16:34:37:1107 Rx 1 0x11F810FF x 8 00 00 58 02 A2 00 EE 00 
16:34:37:1110 Rx 1 0x11F810FF x 8 01 0A 06 6B 00 4A 05 9D 
16:34:37:1111 Rx 1 0x11F810FF x 8 02 00 4C 05 9B 03 0C 01 
16:34:37:1113 Rx 1 0x11F810FF x 8 03 1F 02 70 FF 96 00 26 
16:34:37:1115 Rx 1 0x11F810FF x 8 04 00 00 00 28 00 00 02 
16:34:37:1117 Rx 1 0x11F810FF x 8 05 E2 00 00 02 E4 00 00 
16:34:37:1119 Rx 1 0x11F810FF x 8 06 02 E6 00 00 02 FE 00 
16:34:37:1121 Rx 1 0x11F810FF x 8 07 00 00 2C 02 4E 00 2E 
16:34:37:1123 Rx 1 0x11F810FF x 8 08 02 4E 00 30 02 4E 00 
16:34:37:1125 Rx 1 0x11F810FF x 8 09 32 02 4E 00 34 02 4E 
16:34:37:1127 Rx 1 0x11F810FF x 8 0A 00 36 02 4E 00 1E 00 
16:34:37:1129 Rx 1 0x11F810FF x 8 0B 00 03 2E 00 00 03 30 
16:34:37:1131 Rx 1 0x11F810FF x 7 0C 00 00 03 32 00 00 
16:34:37:1317 Rx 1 0x11F810FF x 8 00 00 58 02 A2 00 EF 00 
16:34:37:1319 Rx 1 0x11F810FF x 8 01 0A 06 6A 00 4A 05 9B 
16:34:37:1321 Rx 1 0x11F810FF x 8 02 00 4C 05 9B 03 0C 01 
16:34:37:1323 Rx 1 0x11F810FF x 8 03 1F 02 70 FF 96 00 26 
16:34:37:1325 Rx 1 0x11F810FF x 8 04 00 00 00 28 00 00 02 
16:34:37:1327 Rx 1 0x11F810FF x 8 05 E2 00 00 02 E4 00 00 
16:34:37:1329 Rx 1 0x11F810FF x 8 06 02 E6 00 00 02 FE 00 
16:34:37:1331 Rx 1 0x11F810FF x 8 07 00 00 2C 02 4E 00 2E 
16:34:37:1333 Rx 1 0x11F810FF x 8 08 02 4E 00 30 02 4E 00 
16:34:37:1334 Rx 1 0x11F810FF x 8 09 32 02 4E 00 34 02 4E 
16:34:37:1337 Rx 1 0x11F810FF x 8 0A 00 36 02 4E 00 1E 00 
16:34:37:1338 Rx 1 0x11F810FF x 8 0B 00 03 2E 00 00 03 30 
16:34:37:1340 Rx 1 0x11F810FF x 7 0C 00 00 03 32 00 00 
16:34:37:1345 Rx 1 0x11F812FF x 8 00 00 08 02 EE 09 CE 00 
16:34:37:1346 Rx 1 0x11F812FF x 4 01 4E 09 CE 
16:34:37:1526 Rx 1 0x11F810FF x 8 00 00 58 02 A2 00 ED 00 
16:34:37:1529 Rx 1 0x11F810FF x 8 01 0A 06 64 00 4A 05 97 
16:34:37:1530 Rx 1 0x11F810FF x 8 02 00 4C 05 97 03 0C 01 
16:34:37:1532 Rx 1 0x11F810FF x 8 03 1F 02 70 FF 96 00 26 
16:34:37:1534 Rx 1 0x11F810FF x 8 04 00 00 00 28 00 00 02 
16:34:37:1536 Rx 1 0x11F810FF x 8 05 E2 00 00 02 E4 00 00 
16:34:37:1538 Rx 1 0x11F810FF x 8 06 02 E6 00 00 02 FE 00 
16:34:37:1540 Rx 1 0x11F810FF x 8 07 00 00 2C 02 4E 00 2E 
16:34:37:1542 Rx 1 0x11F810FF x 8 08 02 4E 00 30 02 4E 00 
16:34:37:1544 Rx 1 0x11F810FF x 8 09 32 02 4E 00 34 02 4E 
16:34:37:1546 Rx 1 0x11F810FF x 8 0A 00 36 02 4E 00 1E 00 
16:34:37:1548 Rx 1 0x11F810FF x 8 0B 00 03 2E 00 00 03 30 
16:34:37:1550 Rx 1 0x11F810FF x 7 0C 00 00 03 32 00 00 
16:34:37:1736 Rx 1 0x11F810FF x 8 00 00 58 02 A2 00 EE 00 
16:34:37:1738 Rx 1 0x11F810FF x 8 01 0A 06 64 00 4A 05 99 
16:34:37:1740 Rx 1 0x11F810FF x 8 02 00 4C 05 97 03 0C 01 
16:34:37:1742 Rx 1 0x11F810FF x 8 03 1E 02 70 FF 96 00 26 
16:34:37:1744 Rx 1 0x11F810FF x 8 04 00 00 00 28 00 00 02 
16:34:37:1745 Rx 1 0x11F810FF x 8 05 E2 00 00 02 E4 00 00 
16:34:37:1747 Rx 1 0x11F810FF x 8 06 02 E6 00 00 02 FE 00 
16:34:37:1750 Rx 1 0x11F810FF x 8 07 00 00 2C 02 4E 00 2E 
16:34:37:1751 Rx 1 0x11F810FF x 8 08 02 4E 00 30 02 4E 00 
16:34:37:1753 Rx 1 0x11F810FF x 8 09 32 02 4E 00 34 02 4E 
16:34:37:1755 Rx 1 0x11F810FF x 8 0A 00 36 02 4E 00 1E 00 
16:34:37:1757 Rx 1 0x11F810FF x 8 0B 00 03 2E 00 00 03 30 
16:34:37:1759 Rx 1 0x11F810FF x 7 0C 00 00 03 32 00 00 
16:34:37:1945 Rx 1 0x11F810FF x 8 00 00 58 02 A2 00 ED 00 
16:34:37:1947 Rx 1 0x11F810FF x 8 01 0A 06 61 00 4A 05 95 
16:34:37:1949 Rx 1 0x11F810FF x 8 02 00 4C 05 94 03 0C 01 
16:34:37:1951 Rx 1 0x11F810FF x 8 03 1E 02 70 FF 96 00 26 
16:34:37:1953 Rx 1 0x11F810FF x 8 04 00 00 00 28 00 00 02 
16:34:37:1955 Rx 1 0x11F810FF x 8 05 E2 00 00 02 E4 00 00 
16:34:37:1957 Rx 1 0x11F810FF x 8 06 02 E6 00 00 02 FE 00 
16:34:37:1959 Rx 1 0x11F810FF x 8 07 00 00 2C 02 4E 00 2E 
16:34:37:1961 Rx 1 0x11F810FF x 8 08 02 4E 00 30 02 4E 00 
16:34:37:1963 Rx 1 0x11F810FF x 8 09 32 02 4E 00 34 02 4E 
16:34:37:1965 Rx 1 0x11F810FF x 8 0A 00 36 02 4E 00 1E 00 
16:34:37:1966 Rx 1 0x11F810FF x 8 0B 00 03 2E 00 00 03 30 
16:34:37:1968 Rx 1 0x11F810FF x 7 0C 00 00 03 32 00 00 
16:34:37:2157 Rx 1 0x11F810FF x 8 00 00 58 02 A2 00 ED 00 
16:34:37:2158 Rx 1 0x11F810FF x 8 01 0A 06 5F 00 4A 05 95 
16:34:37:2160 Rx 1 0x11F810FF x 8 02 00 4C 05 96 03 0C 01 
16:34:37:2162 Rx 1 0x11F810FF x 8 03 1E 02 70 FF 96 00 26 
16:34:37:2164 Rx 1 0x11F810FF x 8 04 00 00 00 28 00 00 02 
16:34:37:2166 Rx 1 0x11F810FF x 8 05 E2 00 00 02 E4 00 00 
16:34:37:2168 Rx 1 0x11F810FF x 8 06 02 E6 00 00 02 FE 00 
16:34:37:2170 Rx 1 0x11F810FF x 8 07 00 00 2C 02 4E 00 2E 
16:34:37:2172 Rx 1 0x11F810FF x 8 08 02 4E 00 30 02 4E 00 
16:34:37:2174 Rx 1 0x11F810FF x 8 09 32 02 4E 00 34 02 4E 
16:34:37:2176 Rx 1 0x11F810FF x 8 0A 00 36 02 4E 00 1E 00 
16:34:37:2178 Rx 1 0x11F810FF x 8 0B 00 03 2E 00 00 03 30 
16:34:37:2180 Rx 1 0x11F810FF x 7 0C 00 00 03 32 00 00 
16:34:37:2309 Rx 1 0x11F812FF x 8 00 00 08 02 EE 09 CE 00 
16:34:37:2310 Rx 1 0x11F812FF x 4 01 4E 09 CE 
16:34:37:2313 Rx 1 0x11F813FF x 8 00 00 0C 03 14 04 D0 03 
16:34:37:2315 Rx 1 0x11F813FF x 8 01 16 01 EE 03 18 01 09 
16:34:37:2317 Rx 1 0x7E5 s 8 00 08 00 08 00 00 15 2D 
16:34:37:2318 Rx 1 0x7E6 s 8 D0 00 1F 00 81 00 00 00 
16:34:37:2320 Rx 1 0x7E7 s 8 01 00 00 00 00 00 00 00 
16:34:37:2322 Rx 1 0x7E8 s 8 07 0A C6 1D 55 1D 56 38 
16:34:37:2323 Rx 1 0x7E9 s 8 00 80 80 80 00 56 00 56 
16:34:37:2325 Rx 1 0x7EA s 8 03 00 26 00 08 00 00 00 
16:34:37:2365 Rx 1 0x11F810FF x 8 00 00 58 02 A2 00 EC 00 
16:34:37:2367 Rx 1 0x11F810FF x 8 01 0A 06 55 00 4A 05 90 
16:34:37:2369 Rx 1 0x11F810FF x 8 02 00 4C 05 91 03 0C 01 
16:34:37:2370 Rx 1 0x11F810FF x 8 03 1D 02 70 FF 95 00 26 
16:34:37:2373 Rx 1 0x11F810FF x 8 04 00 00 00 28 00 00 02 
16:34:37:2375 Rx 1 0x11F810FF x 8 05 E2 00 00 02 E4 00 00 
16:34:37:2376 Rx 1 0x11F810FF x 8 06 02 E6 00 00 02 FE 00 
16:34:37:2379 Rx 1 0x11F810FF x 8 07 00 00 2C 02 4E 00 2E 
16:34:37:2380 Rx 1 0x11F810FF x 8 08 02 4E 00 30 02 4E 00 
16:34:37:2382 Rx 1 0x11F810FF x 8 09 32 02 4E 00 34 02 4E 
16:34:37:2384 Rx 1 0x11F810FF x 8 0A 00 36 02 4E 00 1E 00 
16:34:37:2386 Rx 1 0x11F810FF x 8 0B 00 03 2E 00 00 03 30 
16:34:37:2388 Rx 1 0x11F810FF x 7 0C 00 00 03 32 00 00 
16:34:37:2574 Rx 1 0x11F810FF x 8 00 00 58 02 A2 00 EC 00 
16:34:37:2576 Rx 1 0x11F810FF x 8 01 0A 06 58 00 4A 05 93 
16:34:37:2578 Rx 1 0x11F810FF x 8 02 00 4C 05 91 03 0C 01 
16:34:37:2580 Rx 1 0x11F810FF x 8 03 1D 02 70 FF 95 00 26 
16:34:37:2582 Rx 1 0x11F810FF x 8 04 00 00 00 28 00 00 02 
16:34:37:2584 Rx 1 0x11F810FF x 8 05 E2 00 00 02 E4 00 00 
16:34:37:2585 Rx 1 0x11F810FF x 8 06 02 E6 00 00 02 FE 00 
16:34:37:2588 Rx 1 0x11F810FF x 8 07 00 00 2C 02 4E 00 2E 
16:34:37:2590 Rx 1 0x11F810FF x 8 08 02 4E 00 30 02 4E 00 
16:34:37:2591 Rx 1 0x11F810FF x 8 09 32 02 4E 00 34 02 4E 
16:34:37:2594 Rx 1 0x11F810FF x 8 0A 00 36 02 4E 00 1E 00 
16:34:37:2595 Rx 1 0x11F810FF x 8 0B 00 03 2E 00 00 03 30 
16:34:37:2597 Rx 1 0x11F810FF x 7 0C 00 00 03 32 00 00 
16:34:37:2783 Rx 1 0x11F810FF x 8 00 00 58 02 A2 00 ED 00 
16:34:37:2786 Rx 1 0x11F810FF x 8 01 0A 06 63 00 4A 05 96 
16:34:37:2787 Rx 1 0x11F810FF x 8 02 00 4C 05 96 03 0C 01 
16:34:37:2789 Rx 1 0x11F810FF x 8 03 1E 02 70 FF 95 00 26 
16:34:37:2791 Rx 1 0x11F810FF x 8 04 00 00 00 28 00 00 02 
16:34:37:2793 Rx 1 0x11F810FF x 8 05 E2 00 00 02 E4 00 00 
16:34:37:2795 Rx 1 0x11F810FF x 8 06 02 E6 00 00 02 FE 00 
16:34:37:2797 Rx 1 0x11F810FF x 8 07 00 00 2C 02 4E 00 2E 
16:34:37:2799 Rx 1 0x11F810FF x 8 08 02 4E 00 30 02 4E 00 
16:34:37:2801 Rx 1 0x11F810FF x 8 09 32 02 4E 00 34 02 4E 
16:34:37:2803 Rx 1 0x11F810FF x 8 0A 00 36 02 4E 00 1E 00 
16:34:37:2805 Rx 1 0x11F810FF x 8 0B 00 03 2E 00 00 03 30 
16:34:37:2806 Rx 1 0x11F810FF x 7 0C 00 00 03 32 00 00 
16:34:37:2993 Rx 1 0x11F810FF x 8 00 00 58 02 A2 00 EE 00 
16:34:37:2995 Rx 1 0x11F810FF x 8 01 0A 06 66 00 4A 05 99 
16:34:37:2997 Rx 1 0x11F810FF x 8 02 00 4C 05 98 03 0C 01 
16:34:37:2998 Rx 1 0x11F810FF x 8 03 1E 02 70 FF 96 00 26 
16:34:37:3001 Rx 1 0x11F810FF x 8 04 00 00 00 28 00 00 02 
16:34:37:3003 Rx 1 0x11F810FF x 8 05 E2 00 00 02 E4 00 00 
16:34:37:3004 Rx 1 0x11F810FF x 8 06 02 E6 00 00 02 FE 00 
16:34:37:3006 Rx 1 0x11F810FF x 8 07 00 00 2C 02 4E 00 2E 
16:34:37:3008 Rx 1 0x11F810FF x 8 08 02 4E 00 30 02 4E 00 
16:34:37:3010 Rx 1 0x11F810FF x 8 09 32 02 4E 00 34 02 4E 
16:34:37:3012 Rx 1 0x11F810FF x 8 0A 00 36 02 4E 00 1E 00 
16:34:37:3014 Rx 1 0x11F810FF x 8 0B 00 03 2E 00 00 03 30 
16:34:37:3016 Rx 1 0x11F810FF x 7 0C 00 00 03 32 00 00 
16:34:37:3202 Rx 1 0x11F810FF x 8 00 00 58 02 A2 00 EE 00 
16:34:37:3204 Rx 1 0x11F810FF x 8 01 0A 06 68 00 4A 05 98 
16:34:37:3206 Rx 1 0x11F810FF x 8 02 00 4C 05 98 03 0C 01 
16:34:37:3208 Rx 1 0x11F810FF x 8 03 1F 02 70 FF 96 00 26 
16:34:37:3210 Rx 1 0x11F810FF x 8 04 00 00 00 28 00 00 02 
16:34:37:3212 Rx 1 0x11F810FF x 8 05 E2 00 00 02 E4 00 00 
16:34:37:3214 Rx 1 0x11F810FF x 8 06 02 E6 00 00 02 FE 00 
16:34:37:3216 Rx 1 0x11F810FF x 8 07 00 00 2C 02 4E 00 2E 
16:34:37:3218 Rx 1 0x11F810FF x 8 08 02 4E 00 30 02 4E 00 
16:34:37:3219 Rx 1 0x11F810FF x 8 09 32 02 4E 00 34 02 4E 
16:34:37:3222 Rx 1 0x11F810FF x 8 0A 00 36 02 4E 00 1E 00 
16:34:37:3223 Rx 1 0x11F810FF x 8 0B 00 03 2E 00 00 03 30 
16:34:37:3225 Rx 1 0x11F810FF x 7 0C 00 00 03 32 00 00 
16:34:37:3302 Rx 1 0x11F812FF x 8 00 00 08 02 EE 09 CE 00 
16:34:37:3304 Rx 1 0x11F812FF x 4 01 4E 09 CE 
16:34:37:3409 Rx 1 0x11F810FF x 8 00 00 58 02 A2 00 EE 00 
16:34:37:3411 Rx 1 0x11F810FF x 8 01 0A 06 63 00 4A 05 96 
16:34:37:3412 Rx 1 0x11F810FF x 8 02 00 4C 05 96 03 0C 01 
16:34:37:3414 Rx 1 0x11F810FF x 8 03 1E 02 70 FF 96 00 26 
16:34:37:3417 Rx 1 0x11F810FF x 8 04 00 00 00 28 00 00 02 
16:34:37:3418 Rx 1 0x11F810FF x 8 05 E2 00 00 02 E4 00 00 
16:34:37:3420 Rx 1 0x11F810FF x 8 06 02 E6 00 00 02 FE 00 
16:34:37:3422 Rx 1 0x11F810FF x 8 07 00 00 2C 02 4E 00 2E 
16:34:37:3424 Rx 1 0x11F810FF x 8 08 02 4E 00 30 02 4E 00 
16:34:37:3426 Rx 1 0x11F810FF x 8 09 32 02 4E 00 34 02 4E 
16:34:37:3428 Rx 1 0x11F810FF x 8 0A 00 36 02 4E 00 1E 00 
16:34:37:3430 Rx 1 0x11F810FF x 8 0B 00 03 2E 00 00 03 30 
16:34:37:3432 Rx 1 0x11F810FF x 7 0C 00 00 03 32 00 00 
16:34:37:3618 Rx 1 0x11F810FF x 8 00 00 58 02 A2 00 EE 00 
16:34:37:3620 Rx 1 0x11F810FF x 8 01 0A 06 66 00 4A 05 9A 
16:34:37:3622 Rx 1 0x11F810FF x 8 02 00 4C 05 98 03 0C 01 
16:34:37:3624 Rx 1 0x11F810FF x 8 03 1F 02 70 FF 96 00 26 
16:34:37:3626 Rx 1 0x11F810FF x 8 04 00 00 00 28 00 00 02 
16:34:37:3628 Rx 1 0x11F810FF x 8 05 E2 00 00 02 E4 00 00 
16:34:37:3629 Rx 1 0x11F810FF x 8 06 02 E6 00 00 02 FE 00 
16:34:37:3632 Rx 1 0x11F810FF x 8 07 00 00 2C 02 4E 00 2E 
16:34:37:3634 Rx 1 0x11F810FF x 8 08 02 4E 00 30 02 4E 00 
16:34:37:3635 Rx 1 0x11F810FF x 8 09 32 02 4E 00 34 02 4E 
16:34:37:3638 Rx 1 0x11F810FF x 8 0A 00 36 02 4E 00 1E 00 
16:34:37:3639 Rx 1 0x11F810FF x 8 0B 00 03 2E 00 00 03 30 
16:34:37:3641 Rx 1 0x11F810FF x 7 0C 00 00 03 32 00 00 
16:34:37:3827 Rx 1 0x11F810FF x 8 00 00 58 02 A2 00 EE 00 
16:34:37:3830 Rx 1 0x11F810FF x 8 01 0A 06 6B 00 4A 05 9A 
16:34:37:3831 Rx 1 0x11F810FF x 8 02 00 4C 05 9A 03 0C 01 
16:34:37:3833 Rx 1 0x11F810FF x 8 03 1F 02 70 FF 96 00 26 
16:34:37:3835 Rx 1 0x11F810FF x 8 04 00 00 00 28 00 00 02 
16:34:37:3837 Rx 1 0x11F810FF x 8 05 E2 00 00 02 E4 00 00 
16:34:37:3839 Rx 1 0x11F810FF x 8 06 02 E6 00 00 02 FE 00 
16:34:37:3841 Rx 1 0x11F810FF x 8 07 00 00 2C 02 4E 00 2E 
16:34:37:3843 Rx 1 0x11F810FF x 8 08 02 4E 00 30 02 4E 00 
16:34:37:3845 Rx 1 0x11F810FF x 8 09 32 02 4E 00 34 02 4E 
16:34:37:3847 Rx 1 0x11F810FF x 8 0A 00 36 02 4E 00 1E 00 
16:34:37:3849 Rx 1 0x11F810FF x 8 0B 00 03 2E 00 00 03 30 
16:34:37:3850 Rx 1 0x11F810FF x 7 0C 00 00 03 32 00 00 
16:34:37:4037 Rx 1 0x11F810FF x 8 00 00 58 02 A2 00 EF 00 
16:34:37:4039 Rx 1 0x11F810FF x 8 01 0A 06 68 00 4A 05 9A 
16:34:37:4041 Rx 1 0x11F810FF x 8 02 00 4C 05 9A 03 0C 01 
16:34:37:4042 Rx 1 0x11F810FF x 8 03 1F 02 70 FF 96 00 26 
16:34:37:4045 Rx 1 0x11F810FF x 8 04 00 00 00 28 00 00 02 
16:34:37:4046 Rx 1 0x11F810FF x 8 05 E2 00 00 02 E4 00 00 
16:34:37:4048 Rx 1 0x11F810FF x 8 06 02 E6 00 00 02 FE 00 
16:34:37:4051 Rx 1 0x11F810FF x 8 07 00 00 2C 02 4E 00 2E 
16:34:37:4052 Rx 1 0x11F810FF x 8 08 02 4E 00 30 02 4E 00 
16:34:37:4054 Rx 1 0x11F810FF x 8 09 32 02 4E 00 34 02 4E 
16:34:37:4056 Rx 1 0x11F810FF x 8 0A 00 36 02 4E 00 1E 00 
16:34:37:4058 Rx 1 0x11F810FF x 8 0B 00 03 2E 00 00 03 30 
16:34:37:4060 Rx 1 0x11F810FF x 7 0C 00 00 03 32 00 00 
16:34:37:4246 Rx 1 0x11F810FF x 8 00 00 58 02 A2 00 EE 00 
16:34:37:4249 Rx 1 0x11F810FF x 8 01 0A 06 68 00 4A 05 9A 
16:34:37:4250 Rx 1 0x11F810FF x 8 02 00 4C 05 9A 03 0C 01 
16:34:37:4252 Rx 1 0x11F810FF x 8 03 1F 02 70 FF 96 00 26 
16:34:37:4254 Rx 1 0x11F810FF x 8 04 00 00 00 28 00 00 02 
16:34:37:4256 Rx 1 0x11F810FF x 8 05 E2 00 00 02 E4 00 00 
16:34:37:4258 Rx 1 0x11F810FF x 8 06 02 E6 00 00 02 FE 00 
16:34:37:4260 Rx 1 0x11F810FF x 8 07 00 00 2C 02 4E 00 2E 
16:34:37:4262 Rx 1 0x11F810FF x 8 08 02 4E 00 30 02 4E 00 
16:34:37:4264 Rx 1 0x11F810FF x 8 09 32 02 4E 00 34 02 4E 
16:34:37:4266 Rx 1 0x11F810FF x 8 0A 00 36 02 4E 00 1E 00 
16:34:37:4268 Rx 1 0x11F810FF x 8 0B 00 03 2E 00 00 03 30 
16:34:37:4270 Rx 1 0x11F810FF x 7 0C 00 00 03 32 00 00 
16:34:37:4299 Rx 1 0x11F812FF x 8 00 00 08 02 EE 09 CE 00 
16:34:37:4300 Rx 1 0x11F812FF x 4 01 4E 09 CE 
16:34:37:4456 Rx 1 0x11F810FF x 8 00 00 58 02 A2 00 ED 00 
16:34:37:4458 Rx 1 0x11F810FF x 8 01 0A 06 5F 00 4A 05 96 
16:34:37:4460 Rx 1 0x11F810FF x 8 02 00 4C 05 96 03 0C 01 
16:34:37:4462 Rx 1 0x11F810FF x 8 03 1E 02 70 FF 96 00 26 
16:34:37:4464 Rx 1 0x11F810FF x 8 04 00 00 00 28 00 00 02 
16:34:37:4466 Rx 1 0x11F810FF x 8 05 E2 00 00 02 E4 00 00 
16:34:37:4468 Rx 1 0x11F810FF x 8 06 02 E6 00 00 02 FE 00 
16:34:37:4470 Rx 1 0x11F810FF x 8 07 00 00 2C 02 4E 00 2E 
16:34:37:4471 Rx 1 0x11F810FF x 8 08 02 4E 00 30 02 4E 00 
16:34:37:4473 Rx 1 0x11F810FF x 8 09 32 02 4E 00 34 02 4E 
16:34:37:4475 Rx 1 0x11F810FF x 8 0A 00 36 02 4E 00 1E 00 
16:34:37:4477 Rx 1 0x11F810FF x 8 0B 00 03 2E 00 00 03 30 
16:34:37:4479 Rx 1 0x11F810FF x 7 0C 00 00 03 32 00 00 
16:34:37:4664 Rx 1 0x11F810FF x 8 00 00 58 02 A2 00 EE 00 
16:34:37:4666 Rx 1 0x11F810FF x 8 01 0A 06 6B 00 4A 05 9A 
16:34:37:4668 Rx 1 0x11F810FF x 8 02 00 4C 05 9A 03 0C 01 
16:34:37:4670 Rx 1 0x11F810FF x 8 03 1F 02 70 FF 96 00 26 
16:34:37:4672 Rx 1 0x11F810FF x 8 04 00 00 00 28 00 00 02 
16:34:37:4674 Rx 1 0x11F810FF x 8 05 E2 00 00 02 E4 00 00 
16:34:37:4676 Rx 1 0x11F810FF x 8 06 02 E6 00 00 02 FE 00 
16:34:37:4678 Rx 1 0x11F810FF x 8 07 00 00 2C 02 4E 00 2E 
16:34:37:4679 Rx 1 0x11F810FF x 8 08 02 4E 00 30 02 4E 00 
16:34:37:4682 Rx 1 0x11F810FF x 8 09 32 02 4E 00 34 02 4E 
16:34:37:4683 Rx 1 0x11F810FF x 8 0A 00 36 02 4E 00 1E 00 
16:34:37:4685 Rx 1 0x11F810FF x 8 0B 00 03 2E 00 00 03 30 
16:34:37:4687 Rx 1 0x11F810FF x 7 0C 00 00 03 32 00 00 
16:34:37:4874 Rx 1 0x11F810FF x 8 00 00 58 02 A2 00 F0 00 
16:34:37:4876 Rx 1 0x11F810FF x 8 01 0A 06 6F 00 4A 05 9E 
16:34:37:4877 Rx 1 0x11F810FF x 8 02 00 4C 05 9E 03 0C 01 
16:34:37:4880 Rx 1 0x11F810FF x 8 03 20 02 70 FF 96 00 26 
16:34:37:4881 Rx 1 0x11F810FF x 8 04 00 00 00 28 00 00 02 
16:34:37:4883 Rx 1 0x11F810FF x 8 05 E2 00 00 02 E4 00 00 
16:34:37:4885 Rx 1 0x11F810FF x 8 06 02 E6 00 00 02 FE 00 
16:34:37:4887 Rx 1 0x11F810FF x 8 07 00 00 2C 02 4E 00 2E 
16:34:37:4889 Rx 1 0x11F810FF x 8 08 02 4E 00 30 02 4E 00 
16:34:37:4891 Rx 1 0x11F810FF x 8 09 32 02 4E 00 34 02 4E 
16:34:37:4893 Rx 1 0x11F810FF x 8 0A 00 36 02 4E 00 1E 00 
16:34:37:4895 Rx 1 0x11F810FF x 8 0B 00 03 2E 00 00 03 30 
16:34:37:4897 Rx 1 0x11F810FF x 7 0C 00 00 03 32 00 00 
16:34:37:5084 Rx 1 0x11F810FF x 8 00 00 58 02 A2 00 F0 00 
16:34:37:5085 Rx 1 0x11F810FF x 8 01 0A 06 72 00 4A 05 A1 
16:34:37:5087 Rx 1 0x11F810FF x 8 02 00 4C 05 A1 03 0C 01 
16:34:37:5089 Rx 1 0x11F810FF x 8 03 20 02 70 FF 97 00 26 
16:34:37:5091 Rx 1 0x11F810FF x 8 04 00 00 00 28 00 00 02 
16:34:37:5093 Rx 1 0x11F810FF x 8 05 E2 00 00 02 E4 00 00 
16:34:37:5095 Rx 1 0x11F810FF x 8 06 02 E6 00 00 02 FE 00 
16:34:37:5097 Rx 1 0x11F810FF x 8 07 00 00 2C 02 4E 00 2E 
16:34:37:5099 Rx 1 0x11F810FF x 8 08 02 4E 00 30 02 4E 00 
16:34:37:5101 Rx 1 0x11F810FF x 8 09 32 02 4E 00 34 02 4E 
16:34:37:5103 Rx 1 0x11F810FF x 8 0A 00 36 02 4E 00 1E 00 
16:34:37:5104 Rx 1 0x11F810FF x 8 0B 00 03 2E 00 00 03 30 
16:34:37:5107 Rx 1 0x11F810FF x 7 0C 00 00 03 32 00 00 
16:34:37:5293 Rx 1 0x11F810FF x 8 00 00 58 02 A2 00 F0 00 
16:34:37:5295 Rx 1 0x11F810FF x 8 01 0A 06 78 00 4A 05 A3 
16:34:37:5297 Rx 1 0x11F810FF x 8 02 00 4C 05 A2 03 0C 01 
16:34:37:5299 Rx 1 0x11F810FF x 8 03 21 02 70 FF 97 00 26 
16:34:37:5301 Rx 1 0x11F810FF x 8 04 00 00 00 28 00 00 02 
16:34:37:5303 Rx 1 0x11F810FF x 8 05 E2 00 00 02 E4 00 00 
16:34:37:5305 Rx 1 0x11F810FF x 8 06 02 E6 00 00 02 FE 00 
16:34:37:5307 Rx 1 0x11F810FF x 8 07 00 00 2C 02 4E 00 2E 
16:34:37:5309 Rx 1 0x11F810FF x 8 08 02 4E 00 30 02 4E 00 
16:34:37:5311 Rx 1 0x11F810FF x 8 09 32 02 4E 00 34 02 4E 
16:34:37:5312 Rx 1 0x11F810FF x 8 0A 00 36 02 4E 00 1E 00 
16:34:37:5314 Rx 1 0x11F810FF x 8 0B 00 03 2E 00 00 03 30 
16:34:37:5316 Rx 1 0x11F810FF x 7 0C 00 00 03 32 00 00 
16:34:37:5321 Rx 1 0x11F812FF x 8 00 00 08 02 EE 09 CE 00 
16:34:37:5322 Rx 1 0x11F812FF x 4 01 4E 09 CE 
16:34:37:5503 Rx 1 0x11F810FF x 8 00 00 58 02 A2 00 F0 00 
16:34:37:5505 Rx 1 0x11F810FF x 8 01 0A 06 74 00 4A 05 A2 
16:34:37:5507 Rx 1 0x11F810FF x 8 02 00 4C 05 A2 03 0C 01 
16:34:37:5509 Rx 1 0x11F810FF x 8 03 20 02 70 FF 97 00 26 
16:34:37:5511 Rx 1 0x11F810FF x 8 04 00 00 00 28 00 00 02 
16:34:37:5513 Rx 1 0x11F810FF x 8 05 E2 00 00 02 E4 00 00 
16:34:37:5514 Rx 1 0x11F810FF x 8 06 02 E6 00 00 02 FE 00 
16:34:37:5517 Rx 1 0x11F810FF x 8 07 00 00 2C 02 4E 00 2E 
16:34:37:5519 Rx 1 0x11F810FF x 8 08 02 4E 00 30 02 4E 00 
16:34:37:5520 Rx 1 0x11F810FF x 8 09 32 02 4E 00 34 02 4E 
16:34:37:5522 Rx 1 0x11F810FF x 8 0A 00 36 02 4E 00 1E 00 
16:34:37:5524 Rx 1 0x11F810FF x 8 0B 00 03 2E 00 00 03 30 
16:34:37:5526 Rx 1 0x11F810FF x 7 0C 00 00 03 32 00 00 
16:34:37:5709 Rx 1 0x11F810FF x 8 00 00 58 02 A2 00 F0 00 
16:34:37:5712 Rx 1 0x11F810FF x 8 01 0A 06 72 00 4A 05 A0 
16:34:37:5713 Rx 1 0x11F810FF x 8 02 00 4C 05 A1 03 0C 01 
16:34:37:5715 Rx 1 0x11F810FF x 8 03 20 02 70 FF 97 00 26 
16:34:37:5717 Rx 1 0x11F810FF x 8 04 00 00 00 28 00 00 02 
16:34:37:5719 Rx 1 0x11F810FF x 8 05 E2 00 00 02 E4 00 00 
16:34:37:5721 Rx 1 0x11F810FF x 8 06 02 E6 00 00 02 FE 00 
16:34:37:5723 Rx 1 0x11F810FF x 8 07 00 00 2C 02 4E 00 2E 
16:34:37:5725 Rx 1 0x11F810FF x 8 08 02 4E 00 30 02 4E 00 
16:34:37:5727 Rx 1 0x11F810FF x 8 09 32 02 4E 00 34 02 4E 
16:34:37:5729 Rx 1 0x11F810FF x 8 0A 00 36 02 4E 00 1E 00 
16:34:37:5731 Rx 1 0x11F810FF x 8 0B 00 03 2E 00 00 03 30 
16:34:37:5733 Rx 1 0x11F810FF x 7 0C 00 00 03 32 00 00 
16:34:37:5919 Rx 1 0x11F810FF x 8 00 00 58 02 A2 00 EF 00 
16:34:37:5922 Rx 1 0x11F810FF x 8 01 0A 06 72 00 4A 05 A0 
16:34:37:5923 Rx 1 0x11F810FF x 8 02 00 4C 05 9F 03 0C 01 
16:34:37:5925 Rx 1 0x11F810FF x 8 03 20 02 70 FF 96 00 26 
16:34:37:5927 Rx 1 0x11F810FF x 8 04 00 00 00 28 00 00 02 
16:34:37:5929 Rx 1 0x11F810FF x 8 05 E2 00 00 02 E4 00 00 
16:34:37:5931 Rx 1 0x11F810FF x 8 06 02 E6 00 00 02 FE 00 
16:34:37:5933 Rx 1 0x11F810FF x 8 07 00 00 2C 02 4E 00 2E 
16:34:37:5935 Rx 1 0x11F810FF x 8 08 02 4E 00 30 02 4E 00 
16:34:37:5937 Rx 1 0x11F810FF x 8 09 32 02 4E 00 34 02 4E 
16:34:37:5939 Rx 1 0x11F810FF x 8 0A 00 36 02 4E 00 1E 00 
16:34:37:5941 Rx 1 0x11F810FF x 8 0B 00 03 2E 00 00 03 30 
16:34:37:5942 Rx 1 0x11F810FF x 7 0C 00 00 03 32 00 00 
16:34:37:6129 Rx 1 0x11F810FF x 8 00 00 58 02 A2 00 EF 00 
16:34:37:6131 Rx 1 0x11F810FF x 8 01 0A 06 6F 00 4A 05 9D 
16:34:37:6133 Rx 1 0x11F810FF x 8 02 00 4C 05 9D 03 0C 01 
16:34:37:6135 Rx 1 0x11F810FF x 8 03 1F 02 70 FF 96 00 26 
16:34:37:6137 Rx 1 0x11F810FF x 8 04 00 00 00 28 00 00 02 
16:34:37:6139 Rx 1 0x11F810FF x 8 05 E2 00 00 02 E4 00 00 
16:34:37:6141 Rx 1 0x11F810FF x 8 06 02 E6 00 00 02 FE 00 
16:34:37:6143 Rx 1 0x11F810FF x 8 07 00 00 2C 02 4E 00 2E 
16:34:37:6145 Rx 1 0x11F810FF x 8 08 02 4E 00 30 02 4E 00 
16:34:37:6147 Rx 1 0x11F810FF x 8 09 32 02 4E 00 34 02 4E 
16:34:37:6148 Rx 1 0x11F810FF x 8 0A 00 36 02 4E 00 1E 00 
16:34:37:6151 Rx 1 0x11F810FF x 8 0B 00 03 2E 00 00 03 30 
16:34:37:6152 Rx 1 0x11F810FF x 7 0C 00 00 03 32 00 00 
16:34:37:6291 Rx 1 0x11F812FF x 8 00 00 08 02 EE 09 CE 00 
16:34:37:6292 Rx 1 0x11F812FF x 4 01 4E 09 CE 
16:34:37:6339 Rx 1 0x11F810FF x 8 00 00 58 02 A2 00 ED 00 
16:34:37:6340 Rx 1 0x11F810FF x 8 01 0A 06 64 00 4A 05 98 
16:34:37:6343 Rx 1 0x11F810FF x 8 02 00 4C 05 97 03 0C 01 
16:34:37:6345 Rx 1 0x11F810FF x 8 03 1E 02 70 FF 96 00 26 
16:34:37:6346 Rx 1 0x11F810FF x 8 04 00 00 00 28 00 00 02 
16:34:37:6348 Rx 1 0x11F810FF x 8 05 E2 00 00 02 E4 00 00 
16:34:37:6350 Rx 1 0x11F810FF x 8 06 02 E6 00 00 02 FE 00 
16:34:37:6352 Rx 1 0x11F810FF x 8 07 00 00 2C 02 4E 00 2E 
16:34:37:6355 Rx 1 0x11F810FF x 8 08 02 4E 00 30 02 4E 00 
16:34:37:6356 Rx 1 0x11F810FF x 8 09 32 02 4E 00 34 02 4E 
16:34:37:6358 Rx 1 0x11F810FF x 8 0A 00 36 02 4E 00 1E 00 
16:34:37:6360 Rx 1 0x11F810FF x 8 0B 00 03 2E 00 00 03 30 
16:34:37:6362 Rx 1 0x11F810FF x 7 0C 00 00 03 32 00 00 
16:34:37:6548 Rx 1 0x11F810FF x 8 00 00 58 02 A2 00 ED 00 
16:34:37:6550 Rx 1 0x11F810FF x 8 01 0A 06 61 00 4A 05 96 
16:34:37:6552 Rx 1 0x11F810FF x 8 02 00 4C 05 96 03 0C 01 
16:34:37:6554 Rx 1 0x11F810FF x 8 03 1E 02 70 FF 96 00 26 
16:34:37:6556 Rx 1 0x11F810FF x 8 04 00 00 00 28 00 00 02 
16:34:37:6558 Rx 1 0x11F810FF x 8 05 E2 00 00 02 E4 00 00 
16:34:37:6560 Rx 1 0x11F810FF x 8 06 02 E6 00 00 02 FE 00 
16:34:37:6561 Rx 1 0x11F810FF x 8 07 00 00 2C 02 4E 00 2E 
16:34:37:6564 Rx 1 0x11F810FF x 8 08 02 4E 00 30 02 4E 00 
16:34:37:6565 Rx 1 0x11F810FF x 8 09 32 02 4E 00 34 02 4E 
16:34:37:6567 Rx 1 0x11F810FF x 8 0A 00 36 02 4E 00 1E 00 
16:34:37:6570 Rx 1 0x11F810FF x 8 0B 00 03 2E 00 00 03 30 
16:34:37:6571 Rx 1 0x11F810FF x 7 0C 00 00 03 32 00 00 
16:34:37:6758 Rx 1 0x11F810FF x 8 00 00 58 02 A2 00 ED 00 
16:34:37:6759 Rx 1 0x11F810FF x 8 01 0A 06 61 00 4A 05 97 
16:34:37:6762 Rx 1 0x11F810FF x 8 02 00 4C 05 95 03 0C 01 
16:34:37:6763 Rx 1 0x11F810FF x 8 03 1E 02 70 FF 95 00 26 
16:34:37:6765 Rx 1 0x11F810FF x 8 04 00 00 00 28 00 00 02 
16:34:37:6767 Rx 1 0x11F810FF x 8 05 E2 00 00 02 E4 00 00 
16:34:37:6769 Rx 1 0x11F810FF x 8 06 02 E6 00 00 02 FE 00 
16:34:37:6771 Rx 1 0x11F810FF x 8 07 00 00 2C 02 4E 00 2E 
16:34:37:6773 Rx 1 0x11F810FF x 8 08 02 4E 00 30 02 4E 00 
16:34:37:6775 Rx 1 0x11F810FF x 8 09 32 02 4E 00 34 02 4E 
16:34:37:6777 Rx 1 0x11F810FF x 8 0A 00 36 02 4E 00 1E 00 
16:34:37:6779 Rx 1 0x11F810FF x 8 0B 00 03 2E 00 00 03 30 
16:34:37:6781 Rx 1 0x11F810FF x 7 0C 00 00 03 32 00 00 
16:34:37:6966 Rx 1 0x11F810FF x 8 00 00 58 02 A2 00 ED 00 
16:34:37:6968 Rx 1 0x11F810FF x 8 01 0A 06 64 00 4A 05 97 
16:34:37:6970 Rx 1 0x11F810FF x 8 02 00 4C 05 98 03 0C 01 
16:34:37:6972 Rx 1 0x11F810FF x 8 03 1E 02 70 FF 96 00 26 
16:34:37:6973 Rx 1 0x11F810FF x 8 04 00 00 00 28 00 00 02 
16:34:37:6975 Rx 1 0x11F810FF x 8 05 E2 00 00 02 E4 00 00 
16:34:37:6977 Rx 1 0x11F810FF x 8 06 02 E6 00 00 02 FE 00 
16:34:37:6979 Rx 1 0x11F810FF x 8 07 00 00 2C 02 4E 00 2E 
16:34:37:6981 Rx 1 0x11F810FF x 8 08 02 4E 00 30 02 4E 00 
16:34:37:6983 Rx 1 0x11F810FF x 8 09 32 02 4E 00 34 02 4E 
16:34:37:6985 Rx 1 0x11F810FF x 8 0A 00 36 02 4E 00 1E 00 
16:34:37:6987 Rx 1 0x11F810FF x 8 0B 00 03 2E 00 00 03 30 
16:34:37:6989 Rx 1 0x11F810FF x 7 0C 00 00 03 32 00 00 
16:34:37:7175 Rx 1 0x11F810FF x 8 00 00 58 02 A2 00 EE 00 
16:34:37:7177 Rx 1 0x11F810FF x 8 01 0A 06 6A 00 4A 05 9C 
16:34:37:7179 Rx 1 0x11F810FF x 8 02 00 4C 05 9A 03 0C 01 
16:34:37:7181 Rx 1 0x11F810FF x 8 03 1F 02 70 FF 96 00 26 
16:34:37:7183 Rx 1 0x11F810FF x 8 04 00 00 00 28 00 00 02 
16:34:37:7185 Rx 1 0x11F810FF x 8 05 E2 00 00 02 E4 00 00 
16:34:37:7187 Rx 1 0x11F810FF x 8 06 02 E6 00 00 02 FE 00 
16:34:37:7189 Rx 1 0x11F810FF x 8 07 00 00 2C 02 4E 00 2E 
16:34:37:7191 Rx 1 0x11F810FF x 8 08 02 4E 00 30 02 4E 00 
16:34:37:7193 Rx 1 0x11F810FF x 8 09 32 02 4E 00 34 02 4E 
16:34:37:7194 Rx 1 0x11F810FF x 8 0A 00 36 02 4E 00 1E 00 
16:34:37:7196 Rx 1 0x11F810FF x 8 0B 00 03 2E 00 00 03 30 
16:34:37:7198 Rx 1 0x11F810FF x 7 0C 00 00 03 32 00 00 
16:34:37:7287 Rx 1 0x11F812FF x 8 00 00 08 02 EE 09 CE 00 
16:34:37:7289 Rx 1 0x11F812FF x 4 01 4E 09 CE 
16:34:37:7292 Rx 1 0x11F813FF x 8 00 00 0C 03 14 04 D0 03 
16:34:37:7294 Rx 1 0x11F813FF x 8 01 16 01 EE 03 18 01 09 
16:34:37:7295 Rx 1 0x7E5 s 8 00 08 00 08 00 00 15 2D 
16:34:37:7297 Rx 1 0x7E6 s 8 D0 00 1F 00 81 00 00 00 
16:34:37:7298 Rx 1 0x7E7 s 8 01 00 00 00 00 00 00 00 
16:34:37:7300 Rx 1 0x7E8 s 8 07 0A C6 1D 55 1D 56 38 
16:34:37:7302 Rx 1 0x7E9 s 8 00 80 80 80 00 56 00 56 
16:34:37:7303 Rx 1 0x7EA s 8 03 00 26 00 08 00 00 00 
16:34:37:7384 Rx 1 0x11F810FF x 8 00 00 58 02 A2 00 ED 00 
16:34:37:7385 Rx 1 0x11F810FF x 8 01 0A 06 61 00 4A 05 94 
16:34:37:7388 Rx 1 0x11F810FF x 8 02 00 4C 05 94 03 0C 01 
16:34:37:7389 Rx 1 0x11F810FF x 8 03 1E 02 70 FF 95 00 26 
16:34:37:7391 Rx 1 0x11F810FF x 8 04 00 00 00 28 00 00 02 
16:34:37:7393 Rx 1 0x11F810FF x 8 05 E2 00 00 02 E4 00 00 
16:34:37:7395 Rx 1 0x11F810FF x 8 06 02 E6 00 00 02 FE 00 
16:34:37:7397 Rx 1 0x11F810FF x 8 07 00 00 2C 02 4E 00 2E 
16:34:37:7399 Rx 1 0x11F810FF x 8 08 02 4E 00 30 02 4E 00 
16:34:37:7401 Rx 1 0x11F810FF x 8 09 32 02 4E 00 34 02 4E 
16:34:37:7403 Rx 1 0x11F810FF x 8 0A 00 36 02 4E 00 1E 00 
16:34:37:7405 Rx 1 0x11F810FF x 8 0B 00 03 2E 00 00 03 30 
16:34:37:7407 Rx 1 0x11F810FF x 7 0C 00 00 03 32 00 00 
16:34:37:7593 Rx 1 0x11F810FF x 8 00 00 58 02 A2 00 ED 00 
16:34:37:7595 Rx 1 0x11F810FF x 8 01 0A 06 64 00 4A 05 98 
16:34:37:7597 Rx 1 0x11F810FF x 8 02 00 4C 05 98 03 0C 01 
16:34:37:7599 Rx 1 0x11F810FF x 8 03 1F 02 70 FF 96 00 26 
16:34:37:7600 Rx 1 0x11F810FF x 8 04 00 00 00 28 00 00 02 
16:34:37:7603 Rx 1 0x11F810FF x 8 05 E2 00 00 02 E4 00 00 
16:34:37:7604 Rx 1 0x11F810FF x 8 06 02 E6 00 00 02 FE 00 
16:34:37:7606 Rx 1 0x11F810FF x 8 07 00 00 2C 02 4E 00 2E 
16:34:37:7608 Rx 1 0x11F810FF x 8 08 02 4E 00 30 02 4E 00 
16:34:37:7610 Rx 1 0x11F810FF x 8 09 32 02 4E 00 34 02 4E 
16:34:37:7612 Rx 1 0x11F810FF x 8 0A 00 36 02 4E 00 1E 00 
16:34:37:7614 Rx 1 0x11F810FF x 8 0B 00 03 2E 00 00 03 30 
16:34:37:7616 Rx 1 0x11F810FF x 7 0C 00 00 03 32 00 00 
16:34:37:7636 Rx 1 0x3FFC2FE x 2 50 20 
16:34:37:7803 Rx 1 0x11F810FF x 8 00 00 58 02 A2 00 EE 00 
16:34:37:7805 Rx 1 0x11F810FF x 8 01 0A 06 68 00 4A 05 9B 
16:34:37:7807 Rx 1 0x11F810FF x 8 02 00 4C 05 9A 03 0C 01 
16:34:37:7809 Rx 1 0x11F810FF x 8 03 1F 02 70 FF 96 00 26 
16:34:37:7811 Rx 1 0x11F810FF x 8 04 00 00 00 28 00 00 02 
16:34:37:7813 Rx 1 0x11F810FF x 8 05 E2 00 00 02 E4 00 00 
16:34:37:7815 Rx 1 0x11F810FF x 8 06 02 E6 00 00 02 FE 00 
16:34:37:7817 Rx 1 0x11F810FF x 8 07 00 00 2C 02 4E 00 2E 
16:34:37:7819 Rx 1 0x11F810FF x 8 08 02 4E 00 30 02 4E 00 
16:34:37:7821 Rx 1 0x11F810FF x 8 09 32 02 4E 00 34 02 4E 
16:34:37:7822 Rx 1 0x11F810FF x 8 0A 00 36 02 4E 00 1E 00 
16:34:37:7825 Rx 1 0x11F810FF x 8 0B 00 03 2E 00 00 03 30 
16:34:37:7826 Rx 1 0x11F810FF x 7 0C 00 00 03 32 00 00 
16:34:37:8013 Rx 1 0x11F810FF x 8 00 00 58 02 A2 00 EE 00 
16:34:37:8014 Rx 1 0x11F810FF x 8 01 0A 06 6A 00 4A 05 9A 
16:34:37:8017 Rx 1 0x11F810FF x 8 02 00 4C 05 9A 03 0C 01 
16:34:37:8019 Rx 1 0x11F810FF x 8 03 1F 02 70 FF 96 00 26 
16:34:37:8020 Rx 1 0x11F810FF x 8 04 00 00 00 28 00 00 02 
16:34:37:8022 Rx 1 0x11F810FF x 8 05 E2 00 00 02 E4 00 00 
16:34:37:8024 Rx 1 0x11F810FF x 8 06 02 E6 00 00 02 FE 00 
16:34:37:8026 Rx 1 0x11F810FF x 8 07 00 00 2C 02 4E 00 2E 
16:34:37:8028 Rx 1 0x11F810FF x 8 08 02 4E 00 30 02 4E 00 
16:34:37:8030 Rx 1 0x11F810FF x 8 09 32 02 4E 00 34 02 4E 
16:34:37:8032 Rx 1 0x11F810FF x 8 0A 00 36 02 4E 00 1E 00 
16:34:37:8034 Rx 1 0x11F810FF x 8 0B 00 03 2E 00 00 03 30 
16:34:37:8036 Rx 1 0x11F810FF x 7 0C 00 00 03 32 00 00 
16:34:37:8222 Rx 1 0x11F810FF x 8 00 00 58 02 A2 00 EE 00 
16:34:37:8224 Rx 1 0x11F810FF x 8 01 0A 06 64 00 4A 05 99 
16:34:37:8226 Rx 1 0x11F810FF x 8 02 00 4C 05 97 03 0C 01 
16:34:37:8228 Rx 1 0x11F810FF x 8 03 1E 02 70 FF 96 00 26 
16:34:37:8229 Rx 1 0x11F810FF x 8 04 00 00 00 28 00 00 02 
16:34:37:8232 Rx 1 0x11F810FF x 8 05 E2 00 00 02 E4 00 00 
16:34:37:8233 Rx 1 0x11F810FF x 8 06 02 E6 00 00 02 FE 00 
16:34:37:8235 Rx 1 0x11F810FF x 8 07 00 00 2C 02 4E 00 2E 
16:34:37:8238 Rx 1 0x11F810FF x 8 08 02 4E 00 30 02 4E 00 
16:34:37:8239 Rx 1 0x11F810FF x 8 09 32 02 4E 00 34 02 4E 
16:34:37:8241 Rx 1 0x11F810FF x 8 0A 00 36 02 4E 00 1E 00 
16:34:37:8243 Rx 1 0x11F810FF x 8 0B 00 03 2E 00 00 03 30 
16:34:37:8245 Rx 1 0x11F810FF x 7 0C 00 00 03 32 00 00 
16:34:37:8284 Rx 1 0x11F812FF x 8 00 00 08 02 EE 09 CE 00 
16:34:37:8285 Rx 1 0x11F812FF x 4 01 4E 09 CE 
16:34:37:8431 Rx 1 0x11F810FF x 8 00 00 58 02 A2 00 EE 00 
16:34:37:8433 Rx 1 0x11F810FF x 8 01 0A 06 68 00 4A 05 98 
16:34:37:8435 Rx 1 0x11F810FF x 8 02 00 4C 05 97 03 0C 01 
16:34:37:8437 Rx 1 0x11F810FF x 8 03 1E 02 70 FF 96 00 26 
16:34:37:8439 Rx 1 0x11F810FF x 8 04 00 00 00 28 00 00 02 
16:34:37:8441 Rx 1 0x11F810FF x 8 05 E2 00 00 02 E4 00 00 
16:34:37:8443 Rx 1 0x11F810FF x 8 06 02 E6 00 00 02 FE 00 
16:34:37:8445 Rx 1 0x11F810FF x 8 07 00 00 2C 02 4E 00 2E 
16:34:37:8447 Rx 1 0x11F810FF x 8 08 02 4E 00 30 02 4E 00 
16:34:37:8449 Rx 1 0x11F810FF x 8 09 32 02 4E 00 34 02 4E 
16:34:37:8450 Rx 1 0x11F810FF x 8 0A 00 36 02 4E 00 1E 00 
16:34:37:8453 Rx 1 0x11F810FF x 8 0B 00 03 2E 00 00 03 30 
16:34:37:8454 Rx 1 0x11F810FF x 7 0C 00 00 03 32 00 00 
16:34:37:8641 Rx 1 0x11F810FF x 8 00 00 58 02 A2 00 EF 00 
16:34:37:8643 Rx 1 0x11F810FF x 8 01 0A 06 6D 00 4A 05 9C 
16:34:37:8645 Rx 1 0x11F810FF x 8 02 00 4C 05 9B 03 0C 01 
16:34:37:8647 Rx 1 0x11F810FF x 8 03 1F 02 70 FF 96 00 26 
16:34:37:8648 Rx 1 0x11F810FF x 8 04 00 00 00 28 00 00 02 
16:34:37:8651 Rx 1 0x11F810FF x 8 05 E2 00 00 02 E4 00 00 
16:34:37:8652 Rx 1 0x11F810FF x 8 06 02 E6 00 00 02 FE 00 
16:34:37:8654 Rx 1 0x11F810FF x 8 07 00 00 2C 02 4E 00 2E 
16:34:37:8656 Rx 1 0x11F810FF x 8 08 02 4E 00 30 02 4E 00 
16:34:37:8658 Rx 1 0x11F810FF x 8 09 32 02 4E 00 34 02 4E 
16:34:37:8660 Rx 1 0x11F810FF x 8 0A 00 36 02 4E 00 1E 00 
16:34:37:8662 Rx 1 0x11F810FF x 8 0B 00 03 2E 00 00 03 30 
16:34:37:8664 Rx 1 0x11F810FF x 7 0C 00 00 03 32 00 00 
16:34:37:8850 Rx 1 0x11F810FF x 8 00 00 58 02 A2 00 EF 00 
16:34:37:8852 Rx 1 0x11F810FF x 8 01 0A 06 6D 00 4A 05 9C 
16:34:37:8854 Rx 1 0x11F810FF x 8 02 00 4C 05 9C 03 0C 01 
16:34:37:8856 Rx 1 0x11F810FF x 8 03 1F 02 70 FF 96 00 26 
16:34:37:8858 Rx 1 0x11F810FF x 8 04 00 00 00 28 00 00 02 
16:34:37:8860 Rx 1 0x11F810FF x 8 05 E2 00 00 02 E4 00 00 
16:34:37:8862 Rx 1 0x11F810FF x 8 06 02 E6 00 00 02 FE 00 
16:34:37:8864 Rx 1 0x11F810FF x 8 07 00 00 2C 02 4E 00 2E 
16:34:37:8866 Rx 1 0x11F810FF x 8 08 02 4E 00 30 02 4E 00 
16:34:37:8868 Rx 1 0x11F810FF x 8 09 32 02 4E 00 34 02 4E 
16:34:37:8869 Rx 1 0x11F810FF x 8 0A 00 36 02 4E 00 1E 00 
16:34:37:8872 Rx 1 0x11F810FF x 8 0B 00 03 2E 00 00 03 30 
16:34:37:8873 Rx 1 0x11F810FF x 7 0C 00 00 03 32 00 00 
16:34:37:9057 Rx 1 0x11F810FF x 8 00 00 58 02 A2 00 EE 00 
16:34:37:9059 Rx 1 0x11F810FF x 8 01 0A 06 6B 00 4A 05 9C 
16:34:37:9061 Rx 1 0x11F810FF x 8 02 00 4C 05 9B 03 0C 01 
16:34:37:9063 Rx 1 0x11F810FF x 8 03 1F 02 70 FF 96 00 26 
16:34:37:9064 Rx 1 0x11F810FF x 8 04 00 00 00 28 00 00 02 
16:34:37:9067 Rx 1 0x11F810FF x 8 05 E2 00 00 02 E4 00 00 
16:34:37:9069 Rx 1 0x11F810FF x 8 06 02 E6 00 00 02 FE 00 
16:34:37:9070 Rx 1 0x11F810FF x 8 07 00 00 2C 02 4E 00 2E 
16:34:37:9072 Rx 1 0x11F810FF x 8 08 02 4E 00 30 02 4E 00 
16:34:37:9074 Rx 1 0x11F810FF x 8 09 32 02 4E 00 34 02 4E 
16:34:37:9076 Rx 1 0x11F810FF x 8 0A 00 36 02 4E 00 1E 00 
16:34:37:9078 Rx 1 0x11F810FF x 8 0B 00 03 2E 00 00 03 30 
16:34:37:9080 Rx 1 0x11F810FF x 7 0C 00 00 03 32 00 00 
16:34:37:9266 Rx 1 0x11F810FF x 8 00 00 58 02 A2 00 EE 00 
16:34:37:9268 Rx 1 0x11F810FF x 8 01 0A 06 6A 00 4A 05 9B 
16:34:37:9270 Rx 1 0x11F810FF x 8 02 00 4C 05 9B 03 0C 01 
16:34:37:9272 Rx 1 0x11F810FF x 8 03 1F 02 70 FF 96 00 26 
16:34:37:9274 Rx 1 0x11F810FF x 8 04 00 00 00 28 00 00 02 
16:34:37:9276 Rx 1 0x11F810FF x 8 05 E2 00 00 02 E4 00 00 
16:34:37:9278 Rx 1 0x11F810FF x 8 06 02 E6 00 00 02 FE 00 
16:34:37:9280 Rx 1 0x11F810FF x 8 07 00 00 2C 02 4E 00 2E 
16:34:37:9282 Rx 1 0x11F810FF x 8 08 02 4E 00 30 02 4E 00 
16:34:37:9284 Rx 1 0x11F810FF x 8 09 32 02 4E 00 34 02 4E 
16:34:37:9286 Rx 1 0x11F810FF x 8 0A 00 36 02 4E 00 1E 00 
16:34:37:9288 Rx 1 0x11F810FF x 8 0B 00 03 2E 00 00 03 30 
16:34:37:9289 Rx 1 0x11F810FF x 7 0C 00 00 03 32 00 00 
16:34:37:9294 Rx 1 0x11F812FF x 8 00 00 08 02 EE 09 CE 00 
16:34:37:9296 Rx 1 0x11F812FF x 4 01 4E 09 CE 
16:34:37:9478 Rx 1 0x11F810FF x 8 00 00 58 02 A2 00 EE 00 
16:34:37:9480 Rx 1 0x11F810FF x 8 01 0A 06 68 00 4A 05 9B 
16:34:37:9482 Rx 1 0x11F810FF x 8 02 00 4C 05 99 03 0C 01 
16:34:37:9484 Rx 1 0x11F810FF x 8 03 1F 02 70 FF 96 00 26 
16:34:37:9486 Rx 1 0x11F810FF x 8 04 00 00 00 28 00 00 02 
16:34:37:9487 Rx 1 0x11F810FF x 8 05 E2 00 00 02 E4 00 00 
